 ****** HSPICE -- J-2014.09-SP1-2 64-BIT (Jan 29 2015) win64 ******             
  Copyright (C) 2014 Synopsys, Inc. All Rights Reserved.                        
  Unpublished-rights reserved under US copyright laws.
  This program is protected by law and is subject to the
  terms and conditions of the license agreement from Synopsys.
  Use of this program is your acceptance to be bound by the
  license agreement. HSPICE is the trademark of Synopsys, Inc.
  Input File: .\template\default.sp                                             
  Command line options: -i ./template/default.sp -o ./template/default
  lic:  
  lic: FLEXlm: v10.9.8 
  lic: USER:   odaira               HOSTNAME: odaira 
  lic: HOSTID: 4437e6e4de4c         PID:      4824 
  lic: Using FLEXlm license file: 
  lic: C:\synopsys\Hspice_J-2014.09-SP1-2\key 
  lic: Checkout 1 hspice 
  lic: License/Maintenance for hspice will expire on 31-mar-2016/2014.09 
  lic: 78(in_use)/180(total) FLOATING license(s) on SERVER C:\synopsys\Hspice_J-
 2014.09-SP1-2\key 
  lic:   
 Init: read install configuration file: C:\synopsys\Hspice_J-2014.09-SP1-2\meta.cfg

 **warning** It is recommended that you set start explicitly:
             .TRAN tstep tstop START=val


  **info** (.\template\default.sp:27) DC voltage reset to initial transient source value              in source        0:vs1                 new dc=  0.0000D+00
  
      
 *****************************************************************
 ******  option summary
 ******
 runlvl  = 3         bypass  = 2         
 **info** dc convergence successful at Newton-Raphson method 
1****** HSPICE -- J-2014.09-SP1-2 64-BIT (Jan 29 2015) win64 ******             
 ******  
 ******************************** stl designer 2 t element template ver 2.3 *****

 ****** operating point information tnom=  25.000 temp=  25.000 ******
 ****** operating point status is voltage   simulation time is     0.     
    node    =voltage      node    =voltage      node    =voltage      node    =voltage      node    =voltage

 +0:101     =   0.      0:102     =   0.      0:1001    =   0.      0:1002    =   0.      0:optpt1  =   0.     
 +0:optpt2  =   0.      0:optpt3  =   0.      0:vspt1   =   0.      0:vspt2   =   0.      0:vspt3   =   0.     

 ******  
 ******************************** stl designer 2 t element template ver 2.3 *****

 ****** transient analysis tnom=  25.000 temp=  25.000 ******
x

        time    voltage      voltage      voltage      voltage      voltage      voltage    
                  optpt1       optpt2       optpt3        vspt1        vspt2        vspt3   
   20.00000n    196.8136m      1.1026     963.2903m      0.           1.0000       1.0000   
   20.05000n    146.3107m      1.0936     982.7245m      0.           1.0000       1.0000   
   20.10000n    107.4894m      1.0801     997.9362m      0.           1.0000       1.0000   
   20.15000n     75.0672m      1.0640       1.0116       0.           1.0000       1.0000   
   20.20000n     50.1461m      1.0451       1.0238       0.         965.3946m      1.0000   
   20.25000n     30.7110m      1.0241       1.0348       0.         905.4810m      1.0000   
   20.30000n     14.3133m    999.5473m      1.0467       0.         756.6337m      1.0000   
   20.35000n    137.0266u    972.4021m      1.0592       0.         542.7458m      1.0000   
   20.40000n    -11.2709m    936.5696m      1.0717       0.         347.9444m      1.0000   
   20.45000n    -20.6543m    894.3838m      1.0841       0.         167.1019m      1.0000   
   20.50000n    -25.5581m    841.7061m      1.0935       0.          61.6256m      1.0000   
   20.55000n    -27.1858m    781.3554m      1.1007       0.          11.2679m      1.0000   
   20.60000n    -22.1846m    712.9831m      1.1005       0.           0.           1.0000   
   20.65000n    -15.2725m    642.2985m      1.0981       0.           0.           1.0000   
   20.70000n     -3.8541m    572.2017m      1.0870       0.           0.           1.0000   
   20.75000n      8.8633m    502.2745m      1.0734       0.           0.           1.0000   
   20.80000n     22.4749m    439.6648m      1.0556       0.           0.         972.4363m  
   20.85000n     36.3443m    379.1645m      1.0366       0.           0.         936.9271m  
   20.90000n     50.2883m    328.8804m      1.0132       0.           0.         811.6371m  
   20.95000n     64.2538m    281.5411m    988.5648m      0.           0.         660.4672m  
   21.00000n     79.1390m    241.5515m    961.9784m      0.           0.         460.6128m  
   21.05000n     98.7443m    208.1905m    919.8436m      0.           0.         282.2839m  
   21.10000n    123.7570m    177.4936m    873.9256m      0.           0.         128.2507m  
   21.15000n    152.2874m    148.4566m    817.8751m      0.           0.          45.4866m  
   21.20000n    182.6576m    120.2878m    756.5248m      0.           0.           0.       
   21.25000n    212.7033m     93.4974m    685.8402m      0.           0.           0.       
   21.30000n    235.9070m     69.3037m    615.5877m      0.           0.           0.       
   21.35000n    258.5782m     45.3146m    545.3727m      0.           0.           0.       
   21.40000n    269.5938m     26.4440m    480.8007m      0.           0.           0.       
   21.45000n    279.5969m      8.0180m    416.7189m      0.           0.           0.       
   21.50000n    277.5289m     -5.1382m    363.4411m      0.           0.           0.       
   21.55000n    274.4123m    -17.8366m    311.1018m      0.           0.           0.       
   21.60000n    271.4669m    -28.5453m    269.5367m     53.3560m      0.           0.       
   21.65000n    268.5364m    -39.0813m    228.9077m    111.3472m      0.           0.       
   21.70000n    307.2693m    -52.0927m    197.0905m    346.0000m      0.           0.       
   21.75000n    349.6217m    -65.3191m    166.0389m    596.0000m      0.           0.       
   21.80000n    444.1160m    -78.9340m    137.8740m    792.6440m      0.           0.       
   21.85000n    543.1400m    -92.5826m    109.9599m    984.6528m      0.           0.       
   21.90000n    641.7899m    -99.6530m     84.7925m      1.0000       0.           0.       
   21.95000n    732.2787m   -103.6017m     60.7919m      1.0000       0.           0.       
   22.00000n    797.4170m    -99.5974m     39.6859m      1.0000       0.           0.       
   22.05000n    855.2058m    -92.9640m     20.0963m      1.0000       0.           0.       
   22.10000n    895.3660m    -80.0243m      4.1443m      1.0000       0.           0.       
   22.15000n    926.8056m    -63.9941m     -9.5657m      1.0000      12.0325m      0.       
   22.20000n    951.1441m    -45.4474m    -21.4500m      1.0000      33.8631m      0.       
   22.25000n    970.8568m    -24.2187m    -33.1494m      1.0000     115.4643m      0.       
   22.30000n    986.8029m   -806.0169u    -44.6982m      1.0000     245.7363m      0.       
   22.35000n      1.0007      28.4644m    -57.2592m      1.0000     429.9675m      0.       
   22.40000n      1.0128      62.5047m    -70.6446m      1.0000     658.1369m      0.       
   22.45000n      1.0215     106.6896m    -82.6916m      1.0000     826.5357m      0.       
   22.50000n      1.0272     159.1352m    -93.6487m      1.0000     946.2637m      0.       
   22.55000n      1.0279     219.9812m    -99.3522m      1.0000       1.0000       0.       
   22.60000n      1.0244     287.6674m   -100.7777m      1.0000       1.0000       0.       
   22.65000n      1.0153     358.3745m    -94.9398m      1.0000       1.0000       0.       
   22.70000n      1.0045     430.0196m    -86.8469m      1.0000       1.0000       0.       
   22.75000n    991.5091m    497.3127m    -72.5480m      1.0000       1.0000       9.7627m  
   22.80000n    977.8439m    563.2546m    -56.3223m      1.0000       1.0000      22.5564m  
   22.85000n    964.2286m    620.0867m    -36.1494m      1.0000       1.0000      90.7415m  
   22.90000n    950.6289m    674.0904m    -14.7510m      1.0000       1.0000     176.1238m  
   22.95000n    935.6052m    718.4760m     12.4861m      1.0000       1.0000     335.3855m  
   23.00000n    920.1394m    759.8755m     41.5359m      1.0000       1.0000     517.5845m  
   23.05000n    900.3260m    792.8410m     76.1645m      1.0000       1.0000     742.2873m  
   23.10000n    874.0290m    822.4507m    126.8287m      1.0000       1.0000     872.5112m  
   23.15000n    847.0875m    851.7946m    179.2743m      1.0000       1.0000     992.2392m  
   23.20000n    815.7749m    879.8501m    245.9727m      1.0000       1.0000       1.0000   
   23.25000n    785.7201m    907.1846m    314.2412m      1.0000       1.0000       1.0000   
   23.30000n    760.4498m    932.5462m    385.8862m      1.0000       1.0000       1.0000   
   23.35000n    740.7579m    955.3555m    455.2535m      1.0000       1.0000       1.0000   
   23.40000n    727.1381m    975.3864m    522.1414m      1.0000       1.0000       1.0000   
   23.45000n    720.0429m    992.3881m    583.8083m      1.0000       1.0000       1.0000   
   23.50000n    720.0498m      1.0061     639.7921m      1.0000       1.0000       1.0000   
   23.55000n    725.2931m      1.0183     689.7938m      1.0000       1.0000       1.0000   
   23.60000n    736.2363m      1.0289     733.2838m      1.0000       1.0000       1.0000   
   23.65000n    730.3817m      1.0404     771.2049m    885.9716m      1.0000       1.0000   
   23.70000n    706.2427m      1.0527     803.0640m    647.8231m      1.0000       1.0000   
   23.75000n    650.5641m      1.0661     833.5043m    404.0000m      1.0000       1.0000   
   23.80000n    560.5544m      1.0805     862.4002m    154.0000m      1.0000       1.0000   
   23.85000n    457.2900m      1.0922     889.9211m     53.3129m      1.0000       1.0000   
   23.90000n    351.8325m      1.1025     916.8280m      0.           1.0000       1.0000   
   23.95000n    269.7496m      1.1043     940.7598m      0.           1.0000       1.0000   
   24.00000n    199.7387m      1.1018     962.6318m      0.           1.0000       1.0000   
   24.05000n    146.2956m      1.0934     981.6768m      0.           1.0000       1.0000   
   24.10000n    105.3860m      1.0805     997.3954m      0.           1.0000       1.0000   
   24.15000n     73.7378m      1.0642       1.0107       0.           1.0000       1.0000   
   24.20000n     49.3030m      1.0456       1.0225       0.         980.2965m      1.0000   
   24.25000n     30.1983m      1.0255       1.0334       0.         946.0338m      1.0000   
   24.30000n     13.9011m      1.0022       1.0453       0.         793.5421m      1.0000   
   24.35000n   -321.5851u    976.5111m      1.0579       0.         553.6885m      1.0000   
   24.40000n    -12.2310m    941.8649m      1.0711       0.         336.3064m      1.0000   
   24.45000n    -22.4310m    900.5731m      1.0846       0.         135.5291m      1.0000   
   24.50000n    -27.6994m    846.6567m      1.0949       0.          40.9815m      1.0000   
   24.55000n    -30.1670m    786.1273m      1.1030       0.           0.           1.0000   
   24.60000n    -23.8355m    715.3036m      1.1010       0.           0.           1.0000   
   24.65000n    -17.1366m    644.4354m      1.0984       0.           0.           1.0000   
   24.70000n     -4.4164m    572.8409m      1.0868       0.           0.           1.0000   
   24.75000n      8.5376m    502.9163m      1.0739       0.           0.         997.3211m  
   24.80000n     22.3803m    439.3395m      1.0562       0.           0.         984.4590m  
   24.85000n     36.0399m    378.4987m      1.0375       0.           0.         951.0650m  
   24.90000n     49.0037m    328.0579m      1.0153       0.           0.         839.6247m  
   24.95000n     62.1382m    279.9799m    992.3129m      0.           0.         701.4383m  
   25.00000n     75.9217m    240.8832m    966.6605m      0.           0.         461.5847m  
   25.05000n     94.8952m    207.8778m    925.8540m      0.           0.         260.5110m  
   25.10000n    121.2580m    177.9721m    878.1554m      0.           0.         113.6440m  
   25.15000n    150.5217m    149.0730m    821.9506m      0.           0.          31.0681m  
   25.20000n    182.1096m    120.9804m    758.9310m      0.           0.           0.       
   25.25000n    213.0314m     93.5509m    688.1072m      0.           0.           0.       
   25.30000n    237.0924m     68.6874m    616.7419m      0.           0.           0.       
   25.35000n    260.7730m     43.9715m    545.3434m      0.           0.           0.       
   25.40000n    271.8326m     25.2533m    480.0716m      0.           0.           0.       
   25.45000n    282.5489m      6.6983m    414.9665m      0.           0.           0.       
   25.50000n    279.8944m     -5.4532m    361.6997m      0.           0.           0.       
   25.55000n    276.8763m    -17.4304m    308.7550m      0.           0.           0.       
   25.60000n    272.4000m    -27.3441m    268.2189m     49.9512m      0.           0.       
   25.65000n    267.8840m    -37.2017m    228.0204m    101.2610m      0.           0.       
   25.70000n    306.6276m    -50.9663m    197.1372m    346.0000m      0.           0.       
   25.75000n    346.5477m    -64.8373m    166.5075m    596.0000m      0.           0.       
   25.80000n    443.9104m    -79.6169m    138.4119m    796.0488m      0.           0.       
   25.85000n    542.8355m    -94.4213m    110.3852m    994.7390m      0.           0.       
   25.90000n    642.9756m   -101.8257m     84.6128m      1.0000       0.           0.       
   25.95000n    733.1468m   -105.8632m     60.1160m      1.0000       0.           0.       
   26.00000n    799.5577m   -102.3805m     38.5042m      1.0000       0.           0.       
   26.05000n    855.6762m    -95.1368m     19.1667m      1.0000       0.           0.       
   26.10000n    896.6289m    -82.3511m      3.1805m      1.0000       0.           0.       
   26.15000n    926.2679m    -65.3941m     -9.5642m      1.0000      11.8180m      0.       
   26.20000n    950.7473m    -46.5347m    -20.8306m      1.0000      29.0255m      0.       
   26.25000n    969.5866m    -24.4819m    -32.0538m      1.0000     115.4177m      0.       
   26.30000n    985.8538m   -972.8432u    -43.2573m      1.0000     233.3613m      0.       
   26.35000n      1.0001      29.0731m    -56.5078m      1.0000     430.1820m      0.       
   26.40000n      1.0134      62.1002m    -70.6917m      1.0000     662.9745m      0.       
   26.45000n      1.0224     107.3190m    -83.5510m      1.0000     826.5823m      0.       
   26.50000n      1.0294     158.0977m    -95.8062m      1.0000     958.6387m      0.       
   26.55000n      1.0296     219.8497m   -101.4448m      1.0000       1.0000       0.       
   26.60000n      1.0267     286.6060m   -104.0658m      1.0000       1.0000       0.       
   26.65000n      1.0166     358.2566m    -97.3287m      1.0000       1.0000       0.       
   26.70000n      1.0058     430.3061m    -89.8287m      1.0000       1.0000       0.       
   26.75000n    991.9172m    498.0660m    -74.3126m      1.0000       1.0000       8.8642m  
   26.80000n    977.7272m    565.4762m    -58.1431m      1.0000       1.0000      18.4510m  
   26.85000n    963.6497m    621.1744m    -36.8038m      1.0000       1.0000      89.5544m  
   26.90000n    949.5726m    676.8336m    -15.4473m      1.0000       1.0000     160.8629m  
   26.95000n    934.1444m    718.4796m     13.1421m      1.0000       1.0000     340.0389m  
   27.00000n    918.7117m    760.0788m     41.7555m      1.0000       1.0000     519.5743m  
   27.05000n    898.1457m    790.2944m     76.0393m      1.0000       1.0000     745.2356m  
   27.10000n    874.5042m    820.0551m    126.8180m      1.0000       1.0000     877.2920m  
   27.15000n    845.8434m    849.0455m    180.5595m      1.0000       1.0000     984.8609m  
   27.20000n    815.1634m    877.6122m    245.4841m      1.0000       1.0000       1.0000   
   27.25000n    784.8573m    905.6162m    313.8741m      1.0000       1.0000       1.0000   
   27.30000n    760.5159m    931.0573m    385.0960m      1.0000       1.0000       1.0000   
   27.35000n    739.7791m    954.9043m    455.4704m      1.0000       1.0000       1.0000   
   27.40000n    727.1696m    974.9290m    521.1671m      1.0000       1.0000       1.0000   
   27.45000n    719.1568m    992.7919m    584.2180m      1.0000       1.0000       1.0000   
   27.50000n    719.6199m      1.0071     639.2160m      1.0000       1.0000       1.0000   
   27.55000n    724.8770m      1.0194     689.6593m      1.0000       1.0000       1.0000   
   27.60000n    726.0569m      1.0305     731.7442m    940.4967m      1.0000       1.0000   
   27.65000n    724.9307m      1.0410     769.1015m    847.3380m      1.0000       1.0000   
   27.70000n    691.3711m      1.0531     801.4626m    654.0000m      1.0000       1.0000   
   27.75000n    639.4670m      1.0661     830.9977m    404.0000m      1.0000       1.0000   
   27.80000n    556.1661m      1.0793     859.8422m    213.5033m      1.0000       1.0000   
   27.85000n    455.1069m      1.0925     888.2961m     56.6620m      1.0000       1.0000   
   27.90000n    358.5811m      1.1007     914.7824m      0.           1.0000       1.0000   
   27.95000n    264.6194m      1.1060     940.1557m      0.           1.0000       1.0000   
   28.00000n    202.5398m      1.1006     961.0085m      0.           1.0000       1.0000   
   28.05000n    141.7384m      1.0947     981.6801m      0.           1.0000       1.0000   
   28.10000n    104.6373m      1.0803     996.9760m      0.           1.0000       1.0000   
   28.15000n     69.8217m      1.0650       1.0117       0.         996.0453m      1.0000   
   28.20000n     48.3224m      1.0447       1.0232       0.         952.6523m      1.0000   
   28.25000n     27.4590m      1.0239       1.0346       0.         898.0656m      1.0000   
   28.30000n     12.9362m    998.0341m      1.0463       0.         731.8508m      1.0000   
   28.35000n     -1.2552m    971.0563m      1.0581       0.         561.9547m      1.0000   
   28.40000n    -12.1426m    933.3372m      1.0712       0.         355.3477m      1.0000   
   28.45000n    -22.3893m    893.9745m      1.0840       0.         159.9344m      1.0000   
   28.50000n    -26.2458m    838.2212m      1.0936       0.          76.1492m      1.0000   
   28.55000n    -29.2125m    781.2444m      1.1021       0.           0.           1.0000   
   28.60000n    -23.3057m    712.0662m      1.1006       0.           0.           1.0000   
   28.65000n    -16.3631m    642.6291m      1.0975       0.           0.           1.0000   
   28.70000n     -3.8879m    571.8095m      1.0863       0.           0.           1.0000   
   28.75000n      8.8530m    502.2086m      1.0740       0.           0.         995.4925m  
   28.80000n     23.0130m    439.1168m      1.0556       0.           0.         966.9086m  
   28.85000n     37.1732m    378.0512m      1.0364       0.           0.         923.2312m  
   28.90000n     51.3343m    327.8086m      1.0124       0.           0.         798.9327m  
   28.95000n     65.7436m    279.2484m    987.3234m      0.           0.         665.4101m  
   29.00000n     81.4779m    239.6749m    956.5722m      0.           0.         482.6176m  
   29.05000n    101.0771m    206.2876m    918.4029m      0.           0.         279.0761m  
   29.10000n    126.1052m    176.4886m    868.4762m      0.           0.         155.6095m  
   29.15000n    152.5565m    147.2868m    815.3468m      0.           0.          53.1199m  
   29.20000n    182.3571m    119.4908m    754.6800m      0.           0.           0.       
   29.25000n    212.0231m     92.3866m    685.4991m      0.           0.           0.       
   29.30000n    235.8704m     67.6508m    615.0940m      0.           0.           0.       
