 ****** HSPICE -- J-2014.09-SP1-2 64-BIT (Jan 29 2015) win64 ******             
  Copyright (C) 2014 Synopsys, Inc. All Rights Reserved.                        
  Unpublished-rights reserved under US copyright laws.
  This program is protected by law and is subject to the
  terms and conditions of the license agreement from Synopsys.
  Use of this program is your acceptance to be bound by the
  license agreement. HSPICE is the trademark of Synopsys, Inc.
  Input File: .\template\basic\template_W.sp                                    
  Command line options: -i ./template/basic/template_W.sp -o ./template/basic/template_W
  lic:  
  lic: FLEXlm: v10.9.8 
  lic: USER:   odaira               HOSTNAME: odaira 
  lic: HOSTID: 4437e6e4de4c         PID:      12084 
  lic: Using FLEXlm license file: 
  lic: C:\synopsys\Hspice_J-2014.09-SP1-2\key 
  lic: Checkout 1 hspice 
  lic: License/Maintenance for hspice will expire on 31-mar-2016/2014.09 
  lic: 23(in_use)/180(total) FLOATING license(s) on SERVER C:\synopsys\Hspice_J-
 2014.09-SP1-2\key 
  lic:   
 Init: read install configuration file: C:\synopsys\Hspice_J-2014.09-SP1-2\meta.cfg

 **warning** It is recommended that you set start explicitly:
             .TRAN tstep tstop START=val


  **info** (.\template\basic\template_W.sp:11) DC voltage reset to initial transient source value              in source        0:vs1                 new dc=  0.0000D+00
  
      
 *****************************************************************
 ******  option summary
 ******
 runlvl  = 3         bypass  = 2         
 **info** dc convergence successful at Newton-Raphson method 
1****** HSPICE -- J-2014.09-SP1-2 64-BIT (Jan 29 2015) win64 ******             
 ******  
 ******************** stl ver 2.3 t element basic model ********************

 ****** operating point information tnom=  25.000 temp=  25.000 ******
 ****** operating point status is voltage   simulation time is     0.     
    node    =voltage      node    =voltage      node    =voltage      node    =voltage      node    =voltage

 +0:101     =   0.      0:102     =   0.      0:1001    =   0.      0:1002    =   0.      0:optpt1  =   0.     
 +0:optpt2  =   0.      0:optpt3  =   0.      0:vspt1   =   0.      0:vspt2   =   0.      0:vspt3   =   0.     

 ******  
 ******************** stl ver 2.3 t element basic model ********************

 ****** transient analysis tnom=  25.000 temp=  25.000 ******
x

        time    voltage      voltage      voltage      voltage      voltage      voltage    
                  optpt1       optpt2       optpt3        vspt1        vspt2        vspt3   
   20.00000n    195.9124m      1.1025     937.2281m      0.           1.0000       1.0000   
   20.01000n    185.6532m      1.1008     941.2481m      0.           1.0000       1.0000   
   20.02000n    175.9527m      1.0989     945.0167m      0.           1.0000       1.0000   
   20.03000n    166.8635m      1.0967     948.5103m      0.           1.0000       1.0000   
   20.04000n    157.7744m      1.0946     952.0038m      0.           1.0000       1.0000   
   20.05000n    148.6852m      1.0924     955.4973m      0.           1.0000       1.0000   
   20.06000n    139.5961m      1.0903     958.9908m      0.           1.0000       1.0000   
   20.07000n    132.3038m      1.0874     961.9718m      0.           1.0000       1.0000   
   20.08000n    126.0065m      1.0842     964.6688m      0.           1.0000       1.0000   
   20.09000n    119.7092m      1.0809     967.3658m      0.           1.0000       1.0000   
   20.10000n    113.4119m      1.0777     970.0629m      0.           1.0000       1.0000   
   20.11000n    107.1146m      1.0744     972.7599m      0.           1.0000       1.0000   
   20.12000n    100.8173m      1.0712     975.4569m      0.           1.0000       1.0000   
   20.13000n     94.5200m      1.0679     978.1540m      0.           1.0000       1.0000   
   20.14000n     88.2227m      1.0647     980.8510m      0.           1.0000       1.0000   
   20.15000n     81.9254m      1.0614     983.5481m      0.           1.0000       1.0000   
   20.16000n     75.6281m      1.0582     986.2451m      0.           1.0000       1.0000   
   20.17000n     70.7483m      1.0544     988.8019m      0.         991.8791m      1.0000   
   20.18000n     66.6534m      1.0504     991.2811m      0.         979.2612m      1.0000   
   20.19000n     62.5585m      1.0464     993.7603m      0.         966.6433m      1.0000   
   20.20000n     58.4637m      1.0424     996.2395m      0.         954.0254m      1.0000   
   20.21000n     54.3688m      1.0383     998.7186m      0.         941.4075m      1.0000   
   20.22000n     50.2739m      1.0343       1.0012       0.         928.7895m      1.0000   
   20.23000n     46.1790m      1.0303       1.0037       0.         916.1716m      1.0000   
   20.24000n     42.0842m      1.0263       1.0062       0.         903.5537m      1.0000   
   20.25000n     37.9893m      1.0222       1.0086       0.         890.9358m      1.0000   
   20.26000n     33.8944m      1.0182       1.0111       0.         878.3179m      1.0000   
   20.27000n     30.3735m      1.0135       1.0139       0.         849.1298m      1.0000   
   20.28000n     27.1703m      1.0083       1.0169       0.         810.7657m      1.0000   
   20.29000n     23.9672m      1.0032       1.0199       0.         772.4016m      1.0000   
   20.30000n     20.7640m    997.9993m      1.0229       0.         734.0375m      1.0000   
   20.31000n     17.5609m    992.8440m      1.0259       0.         695.6734m      1.0000   
   20.32000n     14.3577m    987.6887m      1.0289       0.         657.3093m      1.0000   
   20.33000n     11.1546m    982.5335m      1.0319       0.         618.9452m      1.0000   
   20.34000n      7.9514m    977.3782m      1.0349       0.         580.5811m      1.0000   
   20.35000n      4.7483m    972.2229m      1.0379       0.         542.2170m      1.0000   
   20.36000n      1.5451m    967.0677m      1.0409       0.         503.8529m      1.0000   
   20.37000n     -1.1187m    960.2038m      1.0441       0.         458.0000m      1.0000   
   20.38000n     -3.4837m    952.3939m      1.0473       0.         408.0000m      1.0000   
   20.39000n     -5.8488m    944.5840m      1.0505       0.         358.0000m      1.0000   
   20.40000n     -8.2139m    936.7740m      1.0538       0.         308.0000m      1.0000   
   20.41000n    -10.5191m    928.7939m      1.0570       0.         258.0000m      1.0000   
   20.42000n    -12.5515m    920.0375m      1.0599       0.         208.0000m      1.0000   
   20.43000n    -14.5839m    911.2812m      1.0629       0.         158.0000m      1.0000   
   20.44000n    -16.6163m    902.5249m      1.0659       0.         108.0000m      1.0000   
   20.45000n    -17.9922m    892.2085m      1.0685       0.          74.3489m      1.0000   
   20.46000n    -18.9519m    880.9037m      1.0710       0.          51.0569m      1.0000   
   20.47000n    -19.9117m    869.5989m      1.0734       0.          27.7649m      1.0000   
   20.48000n    -20.8632m    858.2793m      1.0758       0.           5.3596m      1.0000   
   20.49000n    -21.6349m    846.6421m      1.0779       0.           2.0298m      1.0000   
   20.50000n    -22.1106m    834.5862m      1.0795       0.           0.           1.0000   
   20.51000n    -22.1237m    821.8764m      1.0807       0.           0.           1.0000   
   20.52000n    -22.1369m    809.1666m      1.0819       0.           0.           1.0000   
   20.53000n    -22.1501m    796.4569m      1.0831       0.           0.           1.0000   
   20.54000n    -22.1632m    783.7471m      1.0842       0.           0.           1.0000   
   20.55000n    -22.0738m    770.9289m      1.0853       0.           0.           1.0000   
   20.56000n    -21.0358m    757.1077m      1.0853       0.           0.           1.0000   
   20.57000n    -19.9979m    743.2866m      1.0854       0.           0.           1.0000   
   20.58000n    -18.9599m    729.4654m      1.0854       0.           0.           1.0000   
   20.59000n    -17.9219m    715.6442m      1.0854       0.           0.           1.0000   
   20.60000n    -16.8839m    701.8230m      1.0855       0.           0.           1.0000   
   20.61000n    -15.0328m    687.8353m      1.0842       0.           0.           1.0000   
   20.62000n    -12.9771m    673.8056m      1.0826       0.           0.           1.0000   
   20.63000n    -10.9214m    659.7759m      1.0809       0.           0.           1.0000   
   20.64000n     -8.8658m    645.7462m      1.0793       0.           0.           1.0000   
   20.65000n     -6.8101m    631.7165m      1.0777       0.           0.           1.0000   
   20.66000n     -4.7544m    617.6868m      1.0760       0.           0.           1.0000   
   20.67000n     -2.6987m    603.6571m      1.0744       0.           0.           1.0000   
   20.68000n   -643.0384u    589.6274m      1.0728       0.           0.           1.0000   
   20.69000n      1.4126m    575.5977m      1.0712       0.           0.           1.0000   
   20.70000n      3.4683m    561.5680m      1.0695       0.           0.           1.0000   
   20.71000n      5.9381m    548.4492m      1.0668       0.           0.         999.2292m  
   20.72000n      8.5120m    535.5596m      1.0638       0.           0.         998.2643m  
   20.73000n     11.0859m    522.6701m      1.0607       0.           0.         997.2995m  
   20.74000n     13.6599m    509.7805m      1.0577       0.           0.         996.3347m  
   20.75000n     16.2338m    496.8910m      1.0547       0.           0.         995.3698m  
   20.76000n     18.8077m    484.0014m      1.0516       0.           0.         994.4050m  
   20.77000n     21.3817m    471.1119m      1.0486       0.           0.         993.4402m  
   20.78000n     23.9556m    458.2223m      1.0455       0.           0.         992.4753m  
   20.79000n     26.5296m    445.3328m      1.0425       0.           0.         991.5105m  
   20.80000n     29.1035m    432.4432m      1.0395       0.           0.         990.5457m  
   20.81000n     31.4820m    421.4735m      1.0358       0.           0.         978.6978m  
   20.82000n     33.8113m    410.9869m      1.0318       0.           0.         964.1112m  
   20.83000n     36.1406m    400.5002m      1.0279       0.           0.         949.5246m  
   20.84000n     38.4699m    390.0136m      1.0240       0.           0.         934.9380m  
   20.85000n     40.7992m    379.5270m      1.0201       0.           0.         920.3514m  
   20.86000n     43.1285m    369.0403m      1.0162       0.           0.         905.7648m  
   20.87000n     45.4578m    358.5537m      1.0123       0.           0.         891.1781m  
   20.88000n     47.7871m    348.0670m      1.0084       0.           0.         876.5915m  
   20.89000n     50.1164m    337.5804m      1.0045       0.           0.         862.0049m  
   20.90000n     52.4457m    327.0938m      1.0006       0.           0.         847.4183m  
   20.91000n     54.7916m    318.4447m    995.9870m      0.           0.         813.8348m  
   20.92000n     57.1417m    310.2579m    991.1489m      0.           0.         775.4707m  
   20.93000n     59.4918m    302.0712m    986.3108m      0.           0.         737.1066m  
   20.94000n     61.8419m    293.8845m    981.4727m      0.           0.         698.7425m  
   20.95000n     64.1920m    285.6978m    976.6346m      0.           0.         660.3784m  
   20.96000n     66.5421m    277.5111m    971.7965m      0.           0.         622.0143m  
   20.97000n     68.8922m    269.3244m    966.9584m      0.           0.         583.6502m  
   20.98000n     71.5529m    261.8705m    961.0966m      0.           0.         543.6516m  
   20.99000n     74.3709m    254.7875m    954.7167m      0.           0.         502.8258m  
   21.00000n     77.1889m    247.7044m    948.3368m      0.           0.         462.0000m  
   21.01000n     80.4470m    240.9992m    941.1630m      0.           0.         412.0000m  
   21.02000n     83.8801m    234.3750m    933.5596m      0.           0.         362.0000m  
   21.03000n     87.5537m    227.8474m    925.7214m      0.           0.         312.0000m  
   21.04000n     91.6051m    221.3989m    917.2316m      0.           0.         265.6062m  
   21.05000n     96.3939m    215.1048m    907.4701m      0.           0.         226.2479m  
   21.06000n    101.1826m    208.8107m    897.7087m      0.           0.         186.8896m  
   21.07000n    105.9713m    202.5166m    887.9473m      0.           0.         147.5313m  
   21.08000n    110.7600m    196.2225m    878.1859m      0.           0.         108.1730m  
   21.09000n    115.5487m    189.9284m    868.4245m      0.           0.          68.8147m  
   21.10000n    120.3493m    183.6365m    858.6429m      0.           0.          29.8232m  
   21.11000n    126.2480m    177.5413m    846.9912m      0.           0.          24.7530m  
   21.12000n    132.1468m    171.4461m    835.3395m      0.           0.          19.6828m  
   21.13000n    138.0456m    165.3509m    823.6877m      0.           0.          14.6126m  
   21.14000n    143.9444m    159.2557m    812.0360m      0.           0.           9.5425m  
   21.15000n    149.8432m    153.1605m    800.3843m      0.           0.           4.4723m  
   21.16000n    155.7638m    147.0818m    788.5967m      0.           0.           0.       
   21.17000n    161.8481m    141.1260m    775.7927m      0.           0.           0.       
   21.18000n    167.9323m    135.1702m    762.9886m      0.           0.           0.       
   21.19000n    174.0166m    129.2144m    750.1846m      0.           0.           0.       
   21.20000n    180.1008m    123.2586m    737.3806m      0.           0.           0.       
   21.21000n    186.0417m    117.4114m    724.1069m      0.           0.           0.       
   21.22000n    191.8374m    111.6334m    710.7448m      0.           0.           0.       
   21.23000n    197.6051m    105.8687m    697.3911m      0.           0.           0.       
   21.24000n    202.7088m    100.4125m    683.9506m      0.           0.           0.       
   21.25000n    207.7626m     94.9795m    670.5035m      0.           0.           0.       
   21.26000n    212.8165m     89.5465m    657.0565m      0.           0.           0.       
   21.27000n    217.8704m     84.1135m    643.6094m      0.           0.           0.       
   21.28000n    222.9242m     78.6805m    630.1624m      0.           0.           0.       
   21.29000n    227.9781m     73.2475m    616.7153m      0.           0.           0.       
   21.30000n    231.3551m     68.6585m    603.7789m      0.           0.           0.       
   21.31000n    234.5146m     64.1790m    590.9087m      0.           0.           0.       
   21.32000n    237.6741m     59.6996m    578.0386m      0.           0.           0.       
   21.33000n    240.8335m     55.2201m    565.1685m      0.           0.           0.       
   21.34000n    243.9930m     50.7407m    552.2983m      0.           0.           0.       
   21.35000n    247.1525m     46.2612m    539.4282m      0.           0.           0.       
   21.36000n    250.3119m     41.7818m    526.5580m      0.           0.           0.       
   21.37000n    253.4714m     37.3023m    513.6879m      0.           0.           0.       
   21.38000n    256.6309m     32.8229m    500.8177m      0.           0.           0.       
   21.39000n    259.7903m     28.3434m    487.9476m      0.           0.           0.       
   21.40000n    260.6049m     25.0950m    476.7237m      0.           0.           0.       
   21.41000n    261.1150m     22.0064m    465.7134m      0.           0.           0.       
   21.42000n    261.6252m     18.9179m    454.7031m      0.           0.           0.       
   21.43000n    262.1354m     15.8293m    443.6928m      0.           0.           0.       
   21.44000n    262.6456m     12.7407m    432.6825m      0.           0.           0.       
   21.45000n    263.1557m      9.6521m    421.6722m      0.           0.           0.       
   21.46000n    263.6659m      6.5635m    410.6620m      0.           0.           0.       
   21.47000n    264.1761m      3.4749m    399.6517m      0.           0.           0.       
   21.48000n    264.6863m    386.3485u    388.6414m      0.           0.           0.       
   21.49000n    265.1964m     -2.7022m    377.6311m      0.           0.           0.       
   21.50000n    263.7068m     -5.0277m    368.8391m      0.           0.           0.       
   21.51000n    261.9575m     -7.2540m    360.3351m      0.           0.           0.       
   21.52000n    260.2083m     -9.4804m    351.8310m      0.           0.           0.       
   21.53000n    258.4591m    -11.7068m    343.3269m      0.           0.           0.       
   21.54000n    256.7098m    -13.9332m    334.8228m      0.           0.           0.       
   21.55000n    254.9606m    -16.1596m    326.3187m      0.           0.           0.       
   21.56000n    253.2114m    -18.3860m    317.8147m      0.           0.           0.       
   21.57000n    251.4621m    -20.6123m    309.3106m      0.           0.           0.       
   21.58000n    249.7129m    -22.8387m    300.8065m      0.           0.           0.       
   21.59000n    247.9637m    -25.0651m    292.3024m      0.           0.           0.       
   21.60000n    250.4448m    -27.6944m    285.4454m     26.7081m      0.           0.       
   21.61000n    253.4750m    -30.3760m    278.8021m     56.8825m      0.           0.       
   21.62000n    256.5052m    -33.0576m    272.1589m     87.0569m      0.           0.       
   21.63000n    259.5353m    -35.7392m    265.5156m    117.2312m      0.           0.       
   21.64000n    262.5655m    -38.4208m    258.8723m    147.4056m      0.           0.       
   21.65000n    265.5957m    -41.1024m    252.2290m    177.5800m      0.           0.       
   21.66000n    268.6258m    -43.7840m    245.5858m    207.7543m      0.           0.       
   21.67000n    271.6560m    -46.4656m    238.9425m    237.9287m      0.           0.       
   21.68000n    274.6862m    -49.1472m    232.2992m    268.1031m      0.           0.       
   21.69000n    277.7163m    -51.8288m    225.6560m    298.2775m      0.           0.       
   21.70000n    290.2074m    -55.0766m    219.5208m    346.0000m      0.           0.       
   21.71000n    303.9264m    -58.3980m    213.4516m    396.0000m      0.           0.       
   21.72000n    317.6454m    -61.7193m    207.3824m    446.0000m      0.           0.       
   21.73000n    331.3644m    -65.0406m    201.3132m    496.0000m      0.           0.       
   21.74000n    345.0834m    -68.3620m    195.2440m    546.0000m      0.           0.       
   21.75000n    358.8024m    -71.6833m    189.1747m    596.0000m      0.           0.       
   21.76000n    372.5213m    -75.0046m    183.1055m    646.0000m      0.           0.       
   21.77000n    387.0192m    -78.2095m    177.0821m    693.3850m      0.           0.       
   21.78000n    406.3698m    -80.6885m    171.3438m    724.4765m      0.           0.       
   21.79000n    425.7204m    -83.1674m    165.6055m    755.5680m      0.           0.       
   21.80000n    445.0710m    -85.6464m    159.8672m    786.6595m      0.           0.       
   21.81000n    464.4217m    -88.1254m    154.1290m    817.7510m      0.           0.       
   21.82000n    483.7723m    -90.6044m    148.3907m    848.8425m      0.           0.       
   21.83000n    503.1229m    -93.0834m    142.6524m    879.9339m      0.           0.       
   21.84000n    522.4735m    -95.5623m    136.9141m    911.0254m      0.           0.       
   21.85000n    541.8241m    -98.0413m    131.1758m    942.1169m      0.           0.       
