 ****** HSPICE -- F-2011.09-SP2 32-BIT (Feb 27 2012) linux ******               
  Copyright (C) 2011 Synopsys, Inc. All Rights Reserved.                        
  Unpublished-rights reserved under US copyright laws.
  This program is protected by law and is subject to the
  terms and conditions of the license agreement from Synopsys.
  Use of this program is your acceptance to be bound by the
  license agreement. HSPICE is the trademark of Synopsys, Inc.
  Input File: ./template/default.sp                                             
  Command line options: -i ./template/default.sp -o ./template/default
 lic: No 'setenv LM_LICENSE_FILE' in current environment' 
 lic:  
 lic: FLEXlm: v10.8 
 lic: USER:   odaira               HOSTNAME: stl02.islab.cs.tsukuba.ac.jp 
 lic: HOSTID: 003048b92160         PID:      5789 
 lic: Using FLEXlm license file: 
 lic: 1700@vdec-cad1 
 lic: Checkout 1 hspice 
 lic: License/Maintenance for hspice will expire on 31-mar-2016/2014.09 
 lic: 59(in_use)/180(total) FLOATING license(s) on SERVER vdec-cad1 
 lic:   

 **warning** It is recommended that you set start explicitly:
             .TRAN tstep tstop START=val


  **info** (./template/default.sp:27) DC voltage reset to initial transient source value              in source        0:vs1                 new dc=  0.0000D+00
  
      
 *****************************************************************
 ******  option summary
 ******
 runlvl  = 3         bypass  = 2         
1****** HSPICE -- F-2011.09-SP2 32-BIT (Feb 27 2012) linux ******               
 ******  
 ******************************** stl designer 2 t element template ver 2.3 *****

  ******  operating point information tnom=  25.000 temp=  25.000 *****
 ***** operating point status is voltage   simulation time is     0.     
    node    =voltage      node    =voltage      node    =voltage      node    =voltage      node    =voltage

 +0:101     =   0.      0:102     =   0.      0:1001    =   0.      0:1002    =   0.      0:optpt1  =   0.     
 +0:optpt2  =   0.      0:optpt3  =   0.      0:vspt1   =   0.      0:vspt2   =   0.      0:vspt3   =   0.     

 ******  
 ******************************** stl designer 2 t element template ver 2.3 *****

  ******  transient analysis tnom=  25.000 temp=  25.000 *****
x

        time    voltage      voltage      voltage      voltage      voltage      voltage    
                  optpt1       optpt2       optpt3        vspt1        vspt2        vspt3   
   20.00000n    196.8135m      1.1026     963.2902m      0.           1.0000       1.0000   
   20.05000n    146.3107m      1.0936     982.7245m      0.           1.0000       1.0000   
   20.10000n    107.4894m      1.0801     997.9362m      0.           1.0000       1.0000   
   20.15000n     75.0673m      1.0640       1.0116       0.           1.0000       1.0000   
   20.20000n     50.1461m      1.0451       1.0238       0.         965.3951m      1.0000   
   20.25000n     30.7110m      1.0241       1.0348       0.         905.4807m      1.0000   
   20.30000n     14.3133m    999.5473m      1.0467       0.         756.6349m      1.0000   
   20.35000n    137.0381u    972.4021m      1.0592       0.         542.7457m      1.0000   
   20.40000n    -11.2709m    936.5698m      1.0717       0.         347.9438m      1.0000   
   20.45000n    -20.6543m    894.3838m      1.0841       0.         167.1021m      1.0000   
   20.50000n    -25.5581m    841.7063m      1.0935       0.          61.6248m      1.0000   
   20.55000n    -27.1858m    781.3554m      1.1007       0.          11.2681m      1.0000   
   20.60000n    -22.1846m    712.9831m      1.1005       0.           0.           1.0000   
   20.65000n    -15.2725m    642.2985m      1.0981       0.           0.           1.0000   
   20.70000n     -3.8541m    572.2017m      1.0870       0.           0.           1.0000   
   20.75000n      8.8633m    502.2745m      1.0734       0.           0.           1.0000   
   20.80000n     22.4749m    439.6648m      1.0556       0.           0.         972.4364m  
   20.85000n     36.3443m    379.1645m      1.0366       0.           0.         936.9270m  
   20.90000n     50.2883m    328.8804m      1.0132       0.           0.         811.6376m  
   20.95000n     64.2538m    281.5412m    988.5648m      0.           0.         660.4671m  
   21.00000n     79.1390m    241.5515m    961.9784m      0.           0.         460.6123m  
   21.05000n     98.7442m    208.1906m    919.8438m      0.           0.         282.2834m  
   21.10000n    123.7570m    177.4936m    873.9259m      0.           0.         128.2490m  
   21.15000n    152.2874m    148.4566m    817.8753m      0.           0.          45.4859m  
   21.20000n    182.6576m    120.2879m    756.5248m      0.           0.           0.       
   21.25000n    212.7033m     93.4974m    685.8402m      0.           0.           0.       
   21.30000n    235.9071m     69.3037m    615.5877m      0.           0.           0.       
   21.35000n    258.5782m     45.3146m    545.3727m      0.           0.           0.       
   21.40000n    269.5938m     26.4440m    480.8007m      0.           0.           0.       
   21.45000n    279.5969m      8.0180m    416.7190m      0.           0.           0.       
   21.50000n    277.5289m     -5.1382m    363.4411m      0.           0.           0.       
   21.55000n    274.4123m    -17.8365m    311.1018m      0.           0.           0.       
   21.60000n    271.4669m    -28.5453m    269.5367m     53.3561m      0.           0.       
   21.65000n    268.5364m    -39.0812m    228.9077m    111.3476m      0.           0.       
   21.70000n    307.2694m    -52.0926m    197.0906m    346.0000m      0.           0.       
   21.75000n    349.6218m    -65.3191m    166.0390m    596.0000m      0.           0.       
   21.80000n    444.1160m    -78.9340m    137.8741m    792.6439m      0.           0.       
   21.85000n    543.1401m    -92.5827m    109.9599m    984.6524m      0.           0.       
   21.90000n    641.7899m    -99.6530m     84.7925m      1.0000       0.           0.       
   21.95000n    732.2787m   -103.6018m     60.7919m      1.0000       0.           0.       
   22.00000n    797.4169m    -99.5974m     39.6859m      1.0000       0.           0.       
   22.05000n    855.2058m    -92.9640m     20.0963m      1.0000       0.           0.       
   22.10000n    895.3660m    -80.0243m      4.1443m      1.0000       0.           0.       
   22.15000n    926.8056m    -63.9941m     -9.5657m      1.0000      12.0325m      0.       
   22.20000n    951.1441m    -45.4474m    -21.4500m      1.0000      33.8632m      0.       
   22.25000n    970.8568m    -24.2187m    -33.1494m      1.0000     115.4643m      0.       
   22.30000n    986.8028m   -805.9748u    -44.6981m      1.0000     245.7367m      0.       
   22.35000n      1.0007      28.4644m    -57.2592m      1.0000     429.9675m      0.       
   22.40000n      1.0128      62.5047m    -70.6446m      1.0000     658.1368m      0.       
   22.45000n      1.0215     106.6896m    -82.6916m      1.0000     826.5357m      0.       
   22.50000n      1.0272     159.1353m    -93.6487m      1.0000     946.2633m      0.       
   22.55000n      1.0279     219.9812m    -99.3522m      1.0000       1.0000       0.       
   22.60000n      1.0244     287.6674m   -100.7777m      1.0000       1.0000       0.       
   22.65000n      1.0153     358.3745m    -94.9398m      1.0000       1.0000       0.       
   22.70000n      1.0045     430.0196m    -86.8468m      1.0000       1.0000       0.       
   22.75000n    991.5091m    497.3127m    -72.5480m      1.0000       1.0000       9.7627m  
   22.80000n    977.8438m    563.2546m    -56.3223m      1.0000       1.0000      22.5565m  
   22.85000n    964.2286m    620.0867m    -36.1494m      1.0000       1.0000      90.7415m  
   22.90000n    950.6289m    674.0904m    -14.7510m      1.0000       1.0000     176.1242m  
   22.95000n    935.6052m    718.4760m     12.4861m      1.0000       1.0000     335.3855m  
   23.00000n    920.1394m    759.8755m     41.5359m      1.0000       1.0000     517.5845m  
   23.05000n    900.3260m    792.8410m     76.1645m      1.0000       1.0000     742.2877m  
   23.10000n    874.0288m    822.4506m    126.8287m      1.0000       1.0000     872.5111m  
   23.15000n    847.0871m    851.7945m    179.2744m      1.0000       1.0000     992.2386m  
   23.20000n    815.7748m    879.8501m    245.9727m      1.0000       1.0000       1.0000   
   23.25000n    785.7201m    907.1846m    314.2412m      1.0000       1.0000       1.0000   
   23.30000n    760.4494m    932.5463m    385.8862m      1.0000       1.0000       1.0000   
   23.35000n    740.7583m    955.3552m    455.2531m      1.0000       1.0000       1.0000   
   23.40000n    727.1379m    975.3865m    522.1413m      1.0000       1.0000       1.0000   
   23.45000n    720.0435m    992.3879m    583.8075m      1.0000       1.0000       1.0000   
   23.50000n    720.0497m      1.0061     639.7920m      1.0000       1.0000       1.0000   
   23.55000n    725.2936m      1.0183     689.7930m      1.0000       1.0000       1.0000   
   23.60000n    736.2362m      1.0289     733.2837m      1.0000       1.0000       1.0000   
   23.65000n    730.3788m      1.0404     771.2042m    885.9537m      1.0000       1.0000   
   23.70000n    706.2419m      1.0527     803.0639m    647.8178m      1.0000       1.0000   
   23.75000n    650.5593m      1.0661     833.5042m    404.0000m      1.0000       1.0000   
   23.80000n    560.5530m      1.0805     862.4002m    154.0000m      1.0000       1.0000   
   23.85000n    457.2890m      1.0922     889.9211m     53.3203m      1.0000       1.0000   
   23.90000n    351.8327m      1.1025     916.8280m      0.           1.0000       1.0000   
   23.95000n    269.7498m      1.1043     940.7596m      0.           1.0000       1.0000   
   24.00000n    199.7390m      1.1018     962.6314m      0.           1.0000       1.0000   
   24.05000n    146.2967m      1.0934     981.6760m      0.           1.0000       1.0000   
   24.10000n    105.3853m      1.0805     997.3951m      0.           1.0000       1.0000   
   24.15000n     73.7380m      1.0642       1.0107       0.           1.0000       1.0000   
   24.20000n     49.3023m      1.0456       1.0225       0.         980.2866m      1.0000   
   24.25000n     30.1979m      1.0255       1.0334       0.         945.9993m      1.0000   
   24.30000n     13.9004m      1.0022       1.0453       0.         793.5274m      1.0000   
   24.35000n   -321.9156u    976.5089m      1.0579       0.         553.6832m      1.0000   
   24.40000n    -12.2310m    941.8623m      1.0711       0.         336.3199m      1.0000   
   24.45000n    -22.4298m    900.5675m      1.0846       0.         135.5762m      1.0000   
   24.50000n    -27.6989m    846.6546m      1.0949       0.          40.9915m      1.0000   
   24.55000n    -30.1680m    786.1268m      1.1030       0.           0.           1.0000   
   24.60000n    -23.8342m    715.3024m      1.1010       0.           0.           1.0000   
   24.65000n    -17.1377m    644.4344m      1.0984       0.           0.           1.0000   
   24.70000n     -4.4163m    572.8425m      1.0868       0.           0.           1.0000   
   24.75000n      8.5375m    502.9134m      1.0739       0.           0.         997.3286m  
   24.80000n     22.3796m    439.3425m      1.0562       0.           0.         984.4429m  
   24.85000n     36.0397m    378.4952m      1.0375       0.           0.         951.1046m  
   24.90000n     49.0041m    328.0614m      1.0152       0.           0.         839.5660m  
   24.95000n     62.1387m    279.9785m    992.3117m      0.           0.         701.4272m  
   25.00000n     75.9240m    240.8847m    966.6578m      0.           0.         461.5831m  
   25.05000n     94.8984m    207.8792m    925.8493m      0.           0.         260.5452m  
   25.10000n    121.2559m    177.9722m    878.1714m      0.           0.         113.5041m  
   25.15000n    150.5263m    149.0761m    821.9452m      0.           0.          31.0900m  
   25.20000n    182.1098m    120.9827m    758.9303m      0.           0.           0.       
   25.25000n    213.0302m     93.5532m    688.1058m      0.           0.           0.       
   25.30000n    237.0875m     68.6911m    616.7423m      0.           0.           0.       
   25.35000n    260.7611m     43.9780m    545.3457m      0.           0.           0.       
   25.40000n    271.8310m     25.2550m    480.0713m      0.           0.           0.       
   25.45000n    282.5359m      6.7056m    414.9743m      0.           0.           0.       
   25.50000n    279.8941m     -5.4529m    361.6985m      0.           0.           0.       
   25.55000n    276.8657m    -17.4263m    308.7651m      0.           0.           0.       
   25.60000n    272.4208m    -27.3470m    268.2193m     50.0683m      0.           0.       
   25.65000n    267.9349m    -37.2083m    228.0322m    101.5866m      0.           0.       
   25.70000n    306.6604m    -50.9733m    197.1357m    346.0000m      0.           0.       
   25.75000n    346.6373m    -64.8513m    166.5083m    596.0000m      0.           0.       
   25.80000n    443.9081m    -79.6262m    138.4115m    795.9318m      0.           0.       
   25.85000n    542.8382m    -94.4270m    110.3880m    994.4134m      0.           0.       
   25.90000n    642.9462m   -101.8319m     84.6156m      1.0000       0.           0.       
   25.95000n    733.1414m   -105.8740m     60.1168m      1.0000       0.           0.       
   26.00000n    799.5167m   -102.3759m     38.5119m      1.0000       0.           0.       
   26.05000n    855.6829m    -95.1475m     19.1650m      1.0000       0.           0.       
   26.10000n    896.5958m    -82.3457m      3.1919m      1.0000       0.           0.       
   26.15000n    926.2737m    -65.4014m     -9.5654m      1.0000      11.8379m      0.       
   26.20000n    950.7294m    -46.5316m    -20.8279m      1.0000      29.1783m      0.       
   26.25000n    969.5919m    -24.4837m    -32.0567m      1.0000     115.4586m      0.       
   26.30000n    985.8547m   -958.6138u    -43.2700m      1.0000     233.7831m      0.       
   26.35000n      1.0001      29.0785m    -56.5145m      1.0000     430.1621m      0.       
   26.40000n      1.0134      62.1426m    -70.7031m      1.0000     662.8217m      0.       
   26.45000n      1.0224     107.3273m    -83.5610m      1.0000     826.5414m      0.       
   26.50000n      1.0294     158.1459m    -95.8004m      1.0000     958.2169m      0.       
   26.55000n      1.0296     219.8572m   -101.4524m      1.0000       1.0000       0.       
   26.60000n      1.0267     286.6314m   -104.0424m      1.0000       1.0000       0.       
   26.65000n      1.0166     358.2532m    -97.3308m      1.0000       1.0000       0.       
   26.70000n      1.0058     430.2976m    -89.8082m      1.0000       1.0000       0.       
   26.75000n    991.9156m    498.0517m    -74.3152m      1.0000       1.0000       8.9005m  
   26.80000n    977.7239m    565.4318m    -58.1272m      1.0000       1.0000      18.5771m  
   26.85000n    963.6460m    621.1630m    -36.8046m      1.0000       1.0000      89.6550m  
   26.90000n    949.5693m    676.7705m    -15.4275m      1.0000       1.0000     161.3844m  
   26.95000n    934.1456m    718.4909m     13.1357m      1.0000       1.0000     339.8775m  
   27.00000n    918.7076m    760.0640m     41.7751m      1.0000       1.0000     519.5034m  
   27.05000n    898.1385m    790.2792m     76.0231m      1.0000       1.0000     745.4293m  
   27.10000n    874.5008m    820.0426m    126.8417m      1.0000       1.0000     877.1048m  
   27.15000n    845.8404m    849.0388m    180.5162m      1.0000       1.0000     985.2115m  
   27.20000n    815.1581m    877.6080m    245.4985m      1.0000       1.0000       1.0000   
   27.25000n    784.8372m    905.6227m    313.8738m      1.0000       1.0000       1.0000   
   27.30000n    760.5050m    931.0620m    385.0905m      1.0000       1.0000       1.0000   
   27.35000n    739.7412m    954.9229m    455.4752m      1.0000       1.0000       1.0000   
   27.40000n    727.1630m    974.9339m    521.1605m      1.0000       1.0000       1.0000   
   27.45000n    719.1146m    992.8145m    584.2451m      1.0000       1.0000       1.0000   
   27.50000n    719.6148m      1.0071     639.2197m      1.0000       1.0000       1.0000   
   27.55000n    724.8455m      1.0194     689.7065m      1.0000       1.0000       1.0000   
   27.60000n    726.0438m      1.0305     731.7488m    940.4329m      1.0000       1.0000   
   27.65000n    725.0107m      1.0410     769.1180m    847.9030m      1.0000       1.0000   
   27.70000n    691.3424m      1.0531     801.4482m    654.0000m      1.0000       1.0000   
   27.75000n    639.6147m      1.0661     830.9898m    404.0000m      1.0000       1.0000   
   27.80000n    556.1393m      1.0793     859.8379m    213.5671m      1.0000       1.0000   
   27.85000n    455.0957m      1.0925     888.3021m     56.0970m      1.0000       1.0000   
   27.90000n    358.5470m      1.1007     914.7857m      0.           1.0000       1.0000   
   27.95000n    264.4857m      1.1061     940.1734m      0.           1.0000       1.0000   
   28.00000n    202.5027m      1.1006     961.0184m      0.           1.0000       1.0000   
   28.05000n    141.6320m      1.0947     981.7060m      0.           1.0000       1.0000   
   28.10000n    104.6009m      1.0803     996.9897m      0.           1.0000       1.0000   
   28.15000n     69.8437m      1.0650       1.0117       0.         995.7591m      1.0000   
   28.20000n     48.3094m      1.0447       1.0232       0.         952.7743m      1.0000   
   28.25000n     27.4654m      1.0239       1.0346       0.         897.6841m      1.0000   
   28.30000n     12.9274m    998.0447m      1.0463       0.         732.0015m      1.0000   
   28.35000n     -1.2524m    971.0158m      1.0581       0.         562.2409m      1.0000   
   28.40000n    -12.1600m    933.3669m      1.0712       0.         355.2257m      1.0000   
   28.45000n    -22.3754m    893.9385m      1.0840       0.         160.3159m      1.0000   
   28.50000n    -26.2670m    838.2523m      1.0936       0.          75.9985m      1.0000   
   28.55000n    -29.1955m    781.2373m      1.1021       0.           0.           1.0000   
   28.60000n    -23.3243m    712.0826m      1.1006       0.           0.           1.0000   
   28.65000n    -16.3436m    642.6430m      1.0975       0.           0.           1.0000   
   28.70000n     -3.8852m    571.7971m      1.0864       0.           0.           1.0000   
   28.75000n      8.8602m    502.2467m      1.0740       0.           0.         995.2425m  
   28.80000n     23.0226m    439.0928m      1.0556       0.           0.         966.9966m  
   28.85000n     37.1837m    378.1013m      1.0363       0.           0.         922.6882m  
   28.90000n     51.3380m    327.7861m      1.0124       0.           0.         799.0768m  
   28.95000n     65.7566m    279.2742m    987.2922m      0.           0.         665.5036m  
   29.00000n     81.4800m    239.6658m    956.5586m      0.           0.         482.7471m  
   29.05000n    101.0621m    206.2809m    918.4883m      0.           0.         278.5984m  
   29.10000n    126.1135m    176.4945m    868.5018m      0.           0.         155.5098m  
   29.15000n    152.5430m    147.2832m    815.4119m      0.           0.          52.7417m  
   29.20000n    182.3653m    119.4878m    754.6819m      0.           0.           0.       
   29.25000n    212.0305m     92.3805m    685.5216m      0.           0.           0.       
   29.30000n    235.9173m     67.6256m    615.0961m      0.           0.           0.       
   29.35000n    257.6061m     43.8943m    545.5720m      0.           0.           0.       
